T276C 8693:365 SEGGER J-Link V6.32i Log File (0000ms, 9981ms total)
T276C 8693:365 DLL Compiled: Jul 24 2018 15:19:55 (0000ms, 9981ms total)
T276C 8693:365 Logging started @ 2019-04-19 11:35 (0000ms, 9981ms total)
T276C 8693:365 JLINK_SetWarnOutHandler(...) (0000ms, 9981ms total)
T276C 8693:365 JLINK_OpenEx(...)
Firmware: J-Link V9 compiled Apr 20 2018 16:47:26
Hardware: V9.10
S/N: 59190090
Feature(s): GDB, RDI, FlashBP, FlashDL, JFlash
TELNET listener socket opened on port 19021WEBSRV 
Starting webserver (0039ms, 10020ms total)
T276C 8693:365 WEBSRV Webserver running on local port 19080 (0039ms, 10020ms total)
T276C 8693:365   returns O.K. (0039ms, 10020ms total)
T276C 8693:404 JLINK_GetEmuCaps()  returns 0xB9FF7BBF (0000ms, 10020ms total)
T276C 8693:404 JLINK_TIF_GetAvailable(...) (0001ms, 10021ms total)
T276C 8693:405 JLINK_SetErrorOutHandler(...) (0000ms, 10021ms total)
T276C 8693:405 JLINK_ExecCommand("ProjectFile = "F:\co_pro_2019\Ò½Ôº\´úÂë\MultiRS485 - freemodbus\MDK-ARM\JLinkSettings.ini"", ...).   returns 0x00 (0003ms, 10024ms total)
T276C 8693:428 JLINK_ExecCommand("Device = STM32F405VGTx", ...). Device "STM32F405VG" selected.  returns 0x00 (0045ms, 10069ms total)
T276C 8693:473 JLINK_ExecCommand("DisableConnectionTimeout", ...).   returns 0x01 (0000ms, 10069ms total)
T276C 8693:473 JLINK_GetHardwareVersion()  returns 0x16378 (0000ms, 10069ms total)
T276C 8693:473 JLINK_GetDLLVersion()  returns 63209 (0000ms, 10069ms total)
T276C 8693:474 JLINK_GetFirmwareString(...) (0000ms, 10070ms total)
T276C 8693:700 JLINK_GetDLLVersion()  returns 63209 (0000ms, 10070ms total)
T276C 8693:700 JLINK_GetCompileDateTime() (0000ms, 10070ms total)
T276C 8693:822 JLINK_GetFirmwareString(...) (0001ms, 10071ms total)
T276C 8693:895 JLINK_GetHardwareVersion()  returns 0x16378 (0000ms, 10071ms total)
T276C 8693:981 JLINK_TIF_Select(JLINKARM_TIF_SWD)  returns 0x00 (0000ms, 10071ms total)
T276C 8693:981 JLINK_SetSpeed(5000) (0000ms, 10071ms total)
T276C 8693:981 JLINK_GetId() >0x10B TIF>Found SW-DP with ID 0x2BA01477 >0x0D TIF> >0x28 TIF> >0x0D TIF> >0x28 TIF> >0x0D TIF> >0x28 TIF> >0x0D TIF> >0x28 TIF> >0x0D TIF> >0x21 TIF> >0x0D TIF> >0x28 TIF> >0x0D TIF> >0x28 TIF> >0x0D TIF> >0x28 TIF> >0x0D TIF> >0x21 TIF> >0x0D TIF> >0x21 TIF> >0x0D TIF> >0x28 TIF> >0x0D TIF> >0x21 TIF> >0x0D TIF> >0x21 TIF> >0x0D TIF> >0x28 TIF> >0x0D TIF> >0x21 TIF> >0x0D TIF> >0x21 TIF> >0x0D TIF> >0x28 TIF> >0x0D TIF> >0x21 TIF> >0x0D TIF> >0x21 TIF> >0x0D TIF>
 >0x28 TIF> >0x0D TIF> >0x21 TIF> >0x0D TIF> >0x21 TIF> >0x0D TIF> >0x28 TIF> >0x0D TIF> >0x21 TIF> >0x0D TIF> >0x21 TIF> >0x10B TIF>Found SW-DP with ID 0x2BA01477 >0x0D TIF> >0x28 TIF> >0x0D TIF> >0x28 TIF> >0x0D TIF> >0x28 TIF> >0x0D TIF> >0x28 TIF> >0x0D TIF> >0x21 TIF> >0x0D TIF> >0x28 TIF>Scanning AP map to find all available APs >0x0D TIF> >0x28 TIF> >0x0D TIF> >0x21 TIF> >0x0D TIF> >0x21 TIF> >0x0D TIF> >0x28 TIF> >0x0D TIF> >0x21 TIF> >0x0D TIF> >0x21 TIF>
AP[1]: Stopped AP scan as end of AP map has been reachedAP[0]: AHB-AP (IDR: 0x24770011)Iterating through AP map to find AHB-AP to use >0x42 TIF> >0x28 TIF> >0x0D TIF> >0x28 TIF> >0x0D TIF> >0x21 TIF> >0x0D TIF> >0x21 TIF> >0x42 TIF> >0x28 TIF> >0x0D TIF> >0x28 TIF> >0x0D TIF> >0x28 TIF> >0x0D TIF> >0x21 TIF> >0x0D TIF> >0x21 TIF>AP[0]: Core foundAP[0]: AHB-AP ROM base: 0xE00FF000 >0x0D TIF> >0x28 TIF> >0x0D TIF> >0x28 TIF> >0x0D TIF> >0x28 TIF> >0x0D TIF> >0x21 TIF> >0x0D TIF> >0x21 TIF>
CPUID register: 0x410FC241. Implementer code: 0x41 (ARM)Found Cortex-M4 r0p1, Little endian. -- Max. mem block: 0x00010F28 -- CPU_ReadMem(4 bytes @ 0xE000EDF0) -- CPU_WriteMem(4 bytes @ 0xE000EDF0) -- CPU_ReadMem(4 bytes @ 0xE0002000)FPUnit: 6 code (BP) slots and 2 literal slots -- CPU_ReadMem(4 bytes @ 0xE000EDFC) -- CPU_WriteMem(4 bytes @ 0xE000EDFC) -- CPU_ReadMem(4 bytes @ 0xE0001000) -- CPU_WriteMem(4 bytes @ 0xE0001000) -- CPU_ReadMem(4 bytes @ 0xE000ED88) -- CPU_WriteMem(4 bytes @ 0xE000ED88)
 -- CPU_ReadMem(4 bytes @ 0xE000ED88) -- CPU_WriteMem(4 bytes @ 0xE000ED88)CoreSight components:ROMTbl[0] @ E00FF000 -- CPU_ReadMem(16 bytes @ 0xE00FF000) -- CPU_ReadMem(16 bytes @ 0xE000EFF0) -- CPU_ReadMem(16 bytes @ 0xE000EFE0)ROMTbl[0][0]: E000E000, CID: B105E00D, PID: 000BB00C SCS-M7 -- CPU_ReadMem(16 bytes @ 0xE0001FF0) -- CPU_ReadMem(16 bytes @ 0xE0001FE0)ROMTbl[0][1]: E0001000, CID: B105E00D, PID: 003BB002 DWT -- CPU_ReadMem(16 bytes @ 0xE0002FF0) -- CPU_ReadMem(16 bytes @ 0xE0002FE0)
ROMTbl[0][2]: E0002000, CID: B105E00D, PID: 002BB003 FPB -- CPU_ReadMem(16 bytes @ 0xE0000FF0) -- CPU_ReadMem(16 bytes @ 0xE0000FE0)ROMTbl[0][3]: E0000000, CID: B105E00D, PID: 003BB001 ITM -- CPU_ReadMem(16 bytes @ 0xE00FF010) -- CPU_ReadMem(16 bytes @ 0xE0040FF0) -- CPU_ReadMem(16 bytes @ 0xE0040FE0)ROMTbl[0][4]: E0040000, CID: B105900D, PID: 000BB9A1 TPIU -- CPU_ReadMem(16 bytes @ 0xE0041FF0) -- CPU_ReadMem(16 bytes @ 0xE0041FE0)ROMTbl[0][5]: E0041000, CID: B105900D, PID: 000BB925 ETM >0x0D TIF>
 >0x21 TIF>  returns 0x2BA01477 (1129ms, 11200ms total)
T276C 8695:110 JLINK_GetDLLVersion()  returns 63209 (0000ms, 11200ms total)
T276C 8695:110 JLINK_CORE_GetFound()  returns 0xE0000FF (0000ms, 11200ms total)
T276C 8695:110 JLINK_GetDebugInfo(0x100 = JLINKARM_ROM_TABLE_ADDR_INDEX) -- Value=0xE00FF000  returns 0x00 (0000ms, 11200ms total)
T276C 8695:149 JLINK_GetDebugInfo(0x100 = JLINKARM_ROM_TABLE_ADDR_INDEX) -- Value=0xE00FF000  returns 0x00 (0000ms, 11200ms total)
T276C 8695:149 JLINK_GetDebugInfo(0x101 = JLINKARM_DEBUG_INFO_ETM_ADDR_INDEX) -- Value=0xE0041000  returns 0x00 (0000ms, 11200ms total)
T276C 8695:149 JLINK_ReadMemEx(0xE0041FD0, 0x0020 Bytes, ..., Flags = 0x02000004) -- CPU_ReadMem(32 bytes @ 0xE0041FD0) - Data: 04 00 00 00 00 00 00 00 00 00 00 00 00 00 00 00 ...  returns 0x20 (0001ms, 11201ms total)
T276C 8695:150 JLINK_GetDebugInfo(0x102 = JLINKARM_DEBUG_INFO_MTB_ADDR_INDEX) -- Value=0x00000000  returns 0x00 (0000ms, 11201ms total)
T276C 8695:150 JLINK_GetDebugInfo(0x103 = JLINKARM_DEBUG_INFO_TPIU_ADDR_INDEX) -- Value=0xE0040000  returns 0x00 (0000ms, 11201ms total)
T276C 8695:150 JLINK_GetDebugInfo(0x104 = JLINKARM_DEBUG_INFO_ITM_ADDR_INDEX) -- Value=0xE0000000  returns 0x00 (0000ms, 11201ms total)
T276C 8695:150 JLINK_GetDebugInfo(0x105 = JLINKARM_DEBUG_INFO_DWT_ADDR_INDEX) -- Value=0xE0001000  returns 0x00 (0000ms, 11201ms total)
T276C 8695:150 JLINK_GetDebugInfo(0x106 = JLINKARM_DEBUG_INFO_FPB_ADDR_INDEX) -- Value=0xE0002000  returns 0x00 (0000ms, 11201ms total)
T276C 8695:150 JLINK_GetDebugInfo(0x107 = JLINKARM_DEBUG_INFO_NVIC_ADDR_INDEX) -- Value=0xE000E000  returns 0x00 (0000ms, 11201ms total)
T276C 8695:150 JLINK_GetDebugInfo(0x10C = JLINKARM_DEBUG_INFO_DBG_ADDR_INDEX) -- Value=0xE000EDF0  returns 0x00 (0000ms, 11201ms total)
T276C 8695:150 JLINK_GetDebugInfo(0x01 = Unknown) -- Value=0x00000001  returns 0x00 (0000ms, 11201ms total)
T276C 8695:150 JLINK_ReadMemU32(0xE000ED00, 0x0001 Items, ...) -- CPU_ReadMem(4 bytes @ 0xE000ED00) - Data: 41 C2 0F 41  returns 0x01 (0000ms, 11201ms total)
T276C 8695:150 JLINK_GetDebugInfo(0x10F = JLINKARM_DEBUG_INFO_HAS_CORTEX_M_SECURITY_EXT_INDEX) -- Value=0x00000000  returns 0x00 (0000ms, 11201ms total)
T276C 8695:150 JLINK_SetResetType(JLINKARM_CM3_RESET_TYPE_NORMAL)  returns JLINKARM_CM3_RESET_TYPE_NORMAL (0000ms, 11201ms total)
T276C 8695:150 JLINK_Reset() -- CPU is running -- CPU_WriteMem(4 bytes @ 0xE000EDF0) -- CPU is running -- CPU_WriteMem(4 bytes @ 0xE000EDFC)Reset: Halt core after reset via DEMCR.VC_CORERESET. >0x35 TIF>Reset: Reset device via AIRCR.SYSRESETREQ. -- CPU is running -- CPU_WriteMem(4 bytes @ 0xE000ED0C) >0x0D TIF> >0x28 TIF> -- CPU_ReadMem(4 bytes @ 0xE000EDF0) -- CPU_ReadMem(4 bytes @ 0xE000EDF0) -- CPU is running -- CPU_WriteMem(4 bytes @ 0xE000EDF0) -- CPU is running -- CPU_WriteMem(4 bytes @ 0xE000EDFC)
 -- CPU_ReadMem(4 bytes @ 0xE000EDF0) -- CPU_WriteMem(4 bytes @ 0xE0002000) -- CPU_ReadMem(4 bytes @ 0xE000EDFC) -- CPU_ReadMem(4 bytes @ 0xE0001000) (0168ms, 11369ms total)
T276C 8695:318 JLINK_Halt()  returns 0x00 (0000ms, 11369ms total)
T276C 8695:318 JLINK_ReadMemU32(0xE000EDF0, 0x0001 Items, ...) -- CPU_ReadMem(4 bytes @ 0xE000EDF0) - Data: 03 00 03 00  returns 0x01 (0000ms, 11369ms total)
T276C 8695:318 JLINK_WriteU32(0xE000EDF0, 0xA05F0003) -- CPU_WriteMem(4 bytes @ 0xE000EDF0)  returns 0x00 (0001ms, 11370ms total)
T276C 8695:319 JLINK_WriteU32(0xE000EDFC, 0x01000000) -- CPU_WriteMem(4 bytes @ 0xE000EDFC)  returns 0x00 (0000ms, 11370ms total)
T276C 8695:415 JLINK_GetHWStatus(...)  returns 0x00 (0000ms, 11370ms total)
T276C 8695:507 JLINK_GetNumBPUnits(Type = 0xFFFFFF00)  returns 0x06 (0000ms, 11370ms total)
T276C 8695:507 JLINK_GetNumBPUnits(Type = 0xF0)  returns 0x2000 (0000ms, 11370ms total)
T276C 8695:507 JLINK_GetNumWPUnits()  returns 0x04 (0000ms, 11370ms total)
T276C 8695:565 JLINK_GetSpeed()  returns 0xFA0 (0000ms, 11370ms total)
T276C 8695:632 JLINK_ReadMemU32(0xE000E004, 0x0001 Items, ...) -- CPU_ReadMem(4 bytes @ 0xE000E004) - Data: 02 00 00 00  returns 0x01 (0000ms, 11370ms total)
T276C 8695:632 JLINK_ReadMemU32(0xE000E004, 0x0001 Items, ...) -- CPU_ReadMem(4 bytes @ 0xE000E004) - Data: 02 00 00 00  returns 0x01 (0001ms, 11371ms total)
T276C 8695:633 JLINK_WriteMemEx(0xE0001000, 0x001C Bytes, ..., Flags = 0x02000004) - Data: 01 00 00 00 00 00 00 00 00 00 00 00 00 00 00 00 ... -- CPU_WriteMem(28 bytes @ 0xE0001000)  returns 0x1C (0001ms, 11372ms total)
T276C 8695:634 JLINK_Halt()  returns 0x00 (0000ms, 11372ms total)
T276C 8695:634 JLINK_IsHalted()  returns TRUE (0000ms, 11372ms total)
T276C 8695:649 JLINK_WriteMem(0x20000000, 0x0180 Bytes, ...) - Data: 00 BE 0A E0 0D 78 2D 06 68 40 08 24 40 00 00 D3 ... -- CPU_WriteMem(384 bytes @ 0x20000000)  returns 0x180 (0002ms, 11374ms total)
T276C 8695:651 JLINK_WriteReg(R0, 0x08000000)  returns 0x00 (0000ms, 11374ms total)
T276C 8695:651 JLINK_WriteReg(R1, 0x08954400)  returns 0x00 (0000ms, 11374ms total)
T276C 8695:651 JLINK_WriteReg(R2, 0x00000001)  returns 0x00 (0000ms, 11374ms total)
T276C 8695:651 JLINK_WriteReg(R3, 0x00000000)  returns 0x00 (0000ms, 11374ms total)
T276C 8695:651 JLINK_WriteReg(R4, 0x00000000)  returns 0x00 (0000ms, 11374ms total)
T276C 8695:651 JLINK_WriteReg(R5, 0x00000000)  returns 0x00 (0000ms, 11374ms total)
T276C 8695:651 JLINK_WriteReg(R6, 0x00000000)  returns 0x00 (0000ms, 11374ms total)
T276C 8695:651 JLINK_WriteReg(R7, 0x00000000)  returns 0x00 (0000ms, 11374ms total)
T276C 8695:651 JLINK_WriteReg(R8, 0x00000000)  returns 0x00 (0000ms, 11374ms total)
T276C 8695:651 JLINK_WriteReg(R9, 0x2000017C)  returns 0x00 (0000ms, 11374ms total)
T276C 8695:651 JLINK_WriteReg(R10, 0x00000000)  returns 0x00 (0000ms, 11374ms total)
T276C 8695:651 JLINK_WriteReg(R11, 0x00000000)  returns 0x00 (0000ms, 11374ms total)
T276C 8695:651 JLINK_WriteReg(R12, 0x00000000)  returns 0x00 (0001ms, 11375ms total)
T276C 8695:652 JLINK_WriteReg(R13 (SP), 0x20001000)  returns 0x00 (0000ms, 11375ms total)
T276C 8695:652 JLINK_WriteReg(R14, 0x20000001)  returns 0x00 (0000ms, 11375ms total)
T276C 8695:652 JLINK_WriteReg(R15 (PC), 0x20000054)  returns 0x00 (0000ms, 11375ms total)
T276C 8695:652 JLINK_WriteReg(XPSR, 0x01000000)  returns 0x00 (0000ms, 11375ms total)
T276C 8695:652 JLINK_WriteReg(MSP, 0x20001000)  returns 0x00 (0000ms, 11375ms total)
T276C 8695:652 JLINK_WriteReg(PSP, 0x20001000)  returns 0x00 (0000ms, 11375ms total)
T276C 8695:652 JLINK_WriteReg(CFBP, 0x00000000)  returns 0x00 (0000ms, 11375ms total)
T276C 8695:652 JLINK_SetBPEx(Addr = 0x20000000, Type = 0xFFFFFFF2) -- CPU_ReadMem(2 bytes @ 0x20000000)  returns 0x00000001 (0000ms, 11375ms total)
T276C 8695:652 JLINK_Go() -- CPU_WriteMem(2 bytes @ 0x20000000) -- CPU_ReadMem(4 bytes @ 0xE0001000) -- CPU_WriteMem(4 bytes @ 0xE0002008) -- CPU_WriteMem(4 bytes @ 0xE000200C) -- CPU_WriteMem(4 bytes @ 0xE0002010) -- CPU_WriteMem(4 bytes @ 0xE0002014) -- CPU_WriteMem(4 bytes @ 0xE0002018) -- CPU_WriteMem(4 bytes @ 0xE000201C) -- CPU_WriteMem(4 bytes @ 0xE0001004) (0003ms, 11378ms total)
T276C 8695:655 JLINK_IsHalted() -- CPU_ReadMem(2 bytes @ 0x20000000)  returns TRUE (0002ms, 11380ms total)
T276C 8695:657 JLINK_ReadReg(R15 (PC))  returns 0x20000000 (0000ms, 11378ms total)
T276C 8695:657 JLINK_ClrBPEx(BPHandle = 0x00000001)  returns 0x00 (0000ms, 11378ms total)
T276C 8695:657 JLINK_ReadReg(R0)  returns 0x00000000 (0000ms, 11378ms total)
T276C 8695:658 JLINK_WriteReg(R0, 0x08000000)  returns 0x00 (0000ms, 11378ms total)
T276C 8695:658 JLINK_WriteReg(R1, 0x00004000)  returns 0x00 (0000ms, 11378ms total)
T276C 8695:658 JLINK_WriteReg(R2, 0x000000FF)  returns 0x00 (0001ms, 11379ms total)
T276C 8695:659 JLINK_WriteReg(R3, 0x00000000)  returns 0x00 (0000ms, 11379ms total)
T276C 8695:659 JLINK_WriteReg(R4, 0x00000000)  returns 0x00 (0000ms, 11379ms total)
T276C 8695:659 JLINK_WriteReg(R5, 0x00000000)  returns 0x00 (0000ms, 11379ms total)
T276C 8695:659 JLINK_WriteReg(R6, 0x00000000)  returns 0x00 (0000ms, 11379ms total)
T276C 8695:659 JLINK_WriteReg(R7, 0x00000000)  returns 0x00 (0000ms, 11379ms total)
T276C 8695:659 JLINK_WriteReg(R8, 0x00000000)  returns 0x00 (0000ms, 11379ms total)
T276C 8695:659 JLINK_WriteReg(R9, 0x2000017C)  returns 0x00 (0000ms, 11379ms total)
T276C 8695:659 JLINK_WriteReg(R10, 0x00000000)  returns 0x00 (0000ms, 11379ms total)
T276C 8695:659 JLINK_WriteReg(R11, 0x00000000)  returns 0x00 (0000ms, 11379ms total)
T276C 8695:659 JLINK_WriteReg(R12, 0x00000000)  returns 0x00 (0000ms, 11379ms total)
T276C 8695:659 JLINK_WriteReg(R13 (SP), 0x20001000)  returns 0x00 (0000ms, 11379ms total)
T276C 8695:659 JLINK_WriteReg(R14, 0x20000001)  returns 0x00 (0000ms, 11379ms total)
T276C 8695:659 JLINK_WriteReg(R15 (PC), 0x20000020)  returns 0x00 (0000ms, 11379ms total)
T276C 8695:659 JLINK_WriteReg(XPSR, 0x01000000)  returns 0x00 (0000ms, 11379ms total)
T276C 8695:659 JLINK_WriteReg(MSP, 0x20001000)  returns 0x00 (0000ms, 11379ms total)
T276C 8695:659 JLINK_WriteReg(PSP, 0x20001000)  returns 0x00 (0000ms, 11379ms total)
T276C 8695:659 JLINK_WriteReg(CFBP, 0x00000000)  returns 0x00 (0000ms, 11379ms total)
T276C 8695:659 JLINK_SetBPEx(Addr = 0x20000000, Type = 0xFFFFFFF2)  returns 0x00000002 (0000ms, 11379ms total)
T276C 8695:659 JLINK_Go() -- CPU_ReadMem(4 bytes @ 0xE0001000) (0001ms, 11380ms total)
T276C 8695:660 JLINK_IsHalted() -- CPU_ReadMem(2 bytes @ 0x20000000)  returns TRUE (0002ms, 11382ms total)
T276C 8695:662 JLINK_ReadReg(R15 (PC))  returns 0x20000000 (0000ms, 11380ms total)
T276C 8695:662 JLINK_ClrBPEx(BPHandle = 0x00000002)  returns 0x00 (0000ms, 11380ms total)
T276C 8695:662 JLINK_ReadReg(R0)  returns 0x00000001 (0001ms, 11381ms total)
T276C 8695:663 JLINK_WriteReg(R0, 0x08000000)  returns 0x00 (0000ms, 11381ms total)
T276C 8695:663 JLINK_WriteReg(R1, 0x00004000)  returns 0x00 (0000ms, 11381ms total)
T276C 8695:663 JLINK_WriteReg(R2, 0x000000FF)  returns 0x00 (0000ms, 11381ms total)
T276C 8695:663 JLINK_WriteReg(R3, 0x00000000)  returns 0x00 (0000ms, 11381ms total)
T276C 8695:663 JLINK_WriteReg(R4, 0x00000000)  returns 0x00 (0000ms, 11381ms total)
T276C 8695:663 JLINK_WriteReg(R5, 0x00000000)  returns 0x00 (0000ms, 11381ms total)
T276C 8695:663 JLINK_WriteReg(R6, 0x00000000)  returns 0x00 (0000ms, 11381ms total)
T276C 8695:663 JLINK_WriteReg(R7, 0x00000000)  returns 0x00 (0000ms, 11381ms total)
T276C 8695:663 JLINK_WriteReg(R8, 0x00000000)  returns 0x00 (0000ms, 11381ms total)
T276C 8695:663 JLINK_WriteReg(R9, 0x2000017C)  returns 0x00 (0000ms, 11381ms total)
T276C 8695:663 JLINK_WriteReg(R10, 0x00000000)  returns 0x00 (0000ms, 11381ms total)
T276C 8695:663 JLINK_WriteReg(R11, 0x00000000)  returns 0x00 (0000ms, 11381ms total)
T276C 8695:663 JLINK_WriteReg(R12, 0x00000000)  returns 0x00 (0000ms, 11381ms total)
T276C 8695:663 JLINK_WriteReg(R13 (SP), 0x20001000)  returns 0x00 (0000ms, 11381ms total)
T276C 8695:663 JLINK_WriteReg(R14, 0x20000001)  returns 0x00 (0000ms, 11381ms total)
T276C 8695:663 JLINK_WriteReg(R15 (PC), 0x200000BC)  returns 0x00 (0000ms, 11381ms total)
T276C 8695:663 JLINK_WriteReg(XPSR, 0x01000000)  returns 0x00 (0000ms, 11381ms total)
T276C 8695:663 JLINK_WriteReg(MSP, 0x20001000)  returns 0x00 (0000ms, 11381ms total)
T276C 8695:663 JLINK_WriteReg(PSP, 0x20001000)  returns 0x00 (0000ms, 11381ms total)
T276C 8695:663 JLINK_WriteReg(CFBP, 0x00000000)  returns 0x00 (0000ms, 11381ms total)
T276C 8695:663 JLINK_SetBPEx(Addr = 0x20000000, Type = 0xFFFFFFF2)  returns 0x00000003 (0000ms, 11381ms total)
T276C 8695:663 JLINK_Go() -- CPU_ReadMem(4 bytes @ 0xE0001000) (0001ms, 11382ms total)
T276C 8695:664 JLINK_IsHalted()  returns FALSE (0000ms, 11382ms total)
T276C 8695:900 JLINK_IsHalted()  returns FALSE (0000ms, 11382ms total)
T276C 8695:911 JLINK_IsHalted()  returns FALSE (0000ms, 11382ms total)
T276C 8695:913 JLINK_IsHalted()  returns FALSE (0000ms, 11382ms total)
T276C 8695:915 JLINK_IsHalted()  returns FALSE (0000ms, 11382ms total)
T276C 8695:917 JLINK_IsHalted()  returns FALSE (0000ms, 11382ms total)
T276C 8695:919 JLINK_IsHalted()  returns FALSE (0000ms, 11382ms total)
T276C 8695:921 JLINK_IsHalted()  returns FALSE (0000ms, 11382ms total)
T276C 8695:923 JLINK_IsHalted()  returns FALSE (0000ms, 11382ms total)
T276C 8695:925 JLINK_IsHalted()  returns FALSE (0000ms, 11382ms total)
T276C 8695:927 JLINK_IsHalted()  returns FALSE (0000ms, 11382ms total)
T276C 8695:929 JLINK_IsHalted()  returns FALSE (0000ms, 11382ms total)
T276C 8695:931 JLINK_IsHalted()  returns FALSE (0000ms, 11382ms total)
T276C 8695:933 JLINK_IsHalted()  returns FALSE (0000ms, 11382ms total)
T276C 8695:940 JLINK_IsHalted()  returns FALSE (0000ms, 11382ms total)
T276C 8695:942 JLINK_IsHalted()  returns FALSE (0000ms, 11382ms total)
T276C 8695:944 JLINK_IsHalted()  returns FALSE (0000ms, 11382ms total)
T276C 8695:946 JLINK_IsHalted()  returns FALSE (0000ms, 11382ms total)
T276C 8695:948 JLINK_IsHalted()  returns FALSE (0000ms, 11382ms total)
T276C 8695:950 JLINK_IsHalted()  returns FALSE (0000ms, 11382ms total)
T276C 8695:952 JLINK_IsHalted()  returns FALSE (0000ms, 11382ms total)
T276C 8695:954 JLINK_IsHalted()  returns FALSE (0000ms, 11382ms total)
T276C 8695:956 JLINK_IsHalted()  returns FALSE (0000ms, 11382ms total)
T276C 8695:958 JLINK_IsHalted()  returns FALSE (0000ms, 11382ms total)
T276C 8695:960 JLINK_IsHalted()  returns FALSE (0000ms, 11382ms total)
T276C 8695:962 JLINK_IsHalted()  returns FALSE (0000ms, 11382ms total)
T276C 8695:964 JLINK_IsHalted()  returns FALSE (0000ms, 11382ms total)
T276C 8695:973 JLINK_IsHalted()  returns FALSE (0000ms, 11382ms total)
T276C 8695:975 JLINK_IsHalted()  returns FALSE (0000ms, 11382ms total)
T276C 8695:977 JLINK_IsHalted()  returns FALSE (0000ms, 11382ms total)
T276C 8695:979 JLINK_IsHalted()  returns FALSE (0000ms, 11382ms total)
T276C 8695:981 JLINK_IsHalted()  returns FALSE (0000ms, 11382ms total)
T276C 8695:983 JLINK_IsHalted()  returns FALSE (0000ms, 11382ms total)
T276C 8695:985 JLINK_IsHalted()  returns FALSE (0000ms, 11382ms total)
T276C 8695:987 JLINK_IsHalted()  returns FALSE (0000ms, 11382ms total)
T276C 8695:989 JLINK_IsHalted()  returns FALSE (0000ms, 11382ms total)
T276C 8695:991 JLINK_IsHalted()  returns FALSE (0000ms, 11382ms total)
T276C 8695:993 JLINK_IsHalted()  returns FALSE (0000ms, 11382ms total)
T276C 8695:995 JLINK_IsHalted()  returns FALSE (0000ms, 11382ms total)
T276C 8696:004 JLINK_IsHalted()  returns FALSE (0000ms, 11382ms total)
T276C 8696:006 JLINK_IsHalted()  returns FALSE (0000ms, 11382ms total)
T276C 8696:008 JLINK_IsHalted()  returns FALSE (0000ms, 11382ms total)
T276C 8696:010 JLINK_IsHalted()  returns FALSE (0000ms, 11382ms total)
T276C 8696:012 JLINK_IsHalted()  returns FALSE (0000ms, 11382ms total)
T276C 8696:043 JLINK_IsHalted()  returns FALSE (0000ms, 11382ms total)
T276C 8696:045 JLINK_IsHalted()  returns FALSE (0000ms, 11382ms total)
T276C 8696:047 JLINK_IsHalted()  returns FALSE (0000ms, 11382ms total)
T276C 8696:049 JLINK_IsHalted() -- CPU_ReadMem(2 bytes @ 0x20000000)  returns TRUE (0002ms, 11384ms total)
T276C 8696:051 JLINK_ReadReg(R15 (PC))  returns 0x20000000 (0000ms, 11382ms total)
T276C 8696:051 JLINK_ClrBPEx(BPHandle = 0x00000003)  returns 0x00 (0000ms, 11382ms total)
T276C 8696:051 JLINK_ReadReg(R0)  returns 0x00000000 (0000ms, 11382ms total)
T276C 8696:055 JLINK_WriteReg(R0, 0x08004000)  returns 0x00 (0000ms, 11382ms total)
T276C 8696:055 JLINK_WriteReg(R1, 0x00004000)  returns 0x00 (0000ms, 11382ms total)
T276C 8696:055 JLINK_WriteReg(R2, 0x000000FF)  returns 0x00 (0000ms, 11382ms total)
T276C 8696:055 JLINK_WriteReg(R3, 0x00000000)  returns 0x00 (0000ms, 11382ms total)
T276C 8696:055 JLINK_WriteReg(R4, 0x00000000)  returns 0x00 (0000ms, 11382ms total)
T276C 8696:055 JLINK_WriteReg(R5, 0x00000000)  returns 0x00 (0000ms, 11382ms total)
T276C 8696:055 JLINK_WriteReg(R6, 0x00000000)  returns 0x00 (0000ms, 11382ms total)
T276C 8696:055 JLINK_WriteReg(R7, 0x00000000)  returns 0x00 (0000ms, 11382ms total)
T276C 8696:055 JLINK_WriteReg(R8, 0x00000000)  returns 0x00 (0000ms, 11382ms total)
T276C 8696:055 JLINK_WriteReg(R9, 0x2000017C)  returns 0x00 (0000ms, 11382ms total)
T276C 8696:055 JLINK_WriteReg(R10, 0x00000000)  returns 0x00 (0000ms, 11382ms total)
T276C 8696:055 JLINK_WriteReg(R11, 0x00000000)  returns 0x00 (0000ms, 11382ms total)
T276C 8696:055 JLINK_WriteReg(R12, 0x00000000)  returns 0x00 (0000ms, 11382ms total)
T276C 8696:055 JLINK_WriteReg(R13 (SP), 0x20001000)  returns 0x00 (0000ms, 11382ms total)
T276C 8696:055 JLINK_WriteReg(R14, 0x20000001)  returns 0x00 (0000ms, 11382ms total)
T276C 8696:055 JLINK_WriteReg(R15 (PC), 0x20000020)  returns 0x00 (0000ms, 11382ms total)
T276C 8696:055 JLINK_WriteReg(XPSR, 0x01000000)  returns 0x00 (0000ms, 11382ms total)
T276C 8696:055 JLINK_WriteReg(MSP, 0x20001000)  returns 0x00 (0000ms, 11382ms total)
T276C 8696:055 JLINK_WriteReg(PSP, 0x20001000)  returns 0x00 (0000ms, 11382ms total)
T276C 8696:055 JLINK_WriteReg(CFBP, 0x00000000)  returns 0x00 (0000ms, 11382ms total)
T276C 8696:055 JLINK_SetBPEx(Addr = 0x20000000, Type = 0xFFFFFFF2)  returns 0x00000004 (0000ms, 11382ms total)
T276C 8696:055 JLINK_Go() -- CPU_ReadMem(4 bytes @ 0xE0001000) (0001ms, 11383ms total)
T276C 8696:056 JLINK_IsHalted() -- CPU_ReadMem(2 bytes @ 0x20000000)  returns TRUE (0002ms, 11385ms total)
T276C 8696:058 JLINK_ReadReg(R15 (PC))  returns 0x20000000 (0000ms, 11383ms total)
T276C 8696:058 JLINK_ClrBPEx(BPHandle = 0x00000004)  returns 0x00 (0000ms, 11383ms total)
T276C 8696:058 JLINK_ReadReg(R0)  returns 0x00000001 (0000ms, 11383ms total)
T276C 8696:058 JLINK_WriteReg(R0, 0x08004000)  returns 0x00 (0000ms, 11383ms total)
T276C 8696:058 JLINK_WriteReg(R1, 0x00004000)  returns 0x00 (0000ms, 11383ms total)
T276C 8696:058 JLINK_WriteReg(R2, 0x000000FF)  returns 0x00 (0000ms, 11383ms total)
T276C 8696:058 JLINK_WriteReg(R3, 0x00000000)  returns 0x00 (0000ms, 11383ms total)
T276C 8696:058 JLINK_WriteReg(R4, 0x00000000)  returns 0x00 (0000ms, 11383ms total)
T276C 8696:058 JLINK_WriteReg(R5, 0x00000000)  returns 0x00 (0000ms, 11383ms total)
T276C 8696:058 JLINK_WriteReg(R6, 0x00000000)  returns 0x00 (0000ms, 11383ms total)
T276C 8696:058 JLINK_WriteReg(R7, 0x00000000)  returns 0x00 (0000ms, 11383ms total)
T276C 8696:058 JLINK_WriteReg(R8, 0x00000000)  returns 0x00 (0000ms, 11383ms total)
T276C 8696:058 JLINK_WriteReg(R9, 0x2000017C)  returns 0x00 (0000ms, 11383ms total)
T276C 8696:058 JLINK_WriteReg(R10, 0x00000000)  returns 0x00 (0001ms, 11384ms total)
T276C 8696:059 JLINK_WriteReg(R11, 0x00000000)  returns 0x00 (0000ms, 11384ms total)
T276C 8696:059 JLINK_WriteReg(R12, 0x00000000)  returns 0x00 (0000ms, 11384ms total)
T276C 8696:059 JLINK_WriteReg(R13 (SP), 0x20001000)  returns 0x00 (0000ms, 11384ms total)
T276C 8696:059 JLINK_WriteReg(R14, 0x20000001)  returns 0x00 (0000ms, 11384ms total)
T276C 8696:059 JLINK_WriteReg(R15 (PC), 0x200000BC)  returns 0x00 (0000ms, 11384ms total)
T276C 8696:059 JLINK_WriteReg(XPSR, 0x01000000)  returns 0x00 (0000ms, 11384ms total)
T276C 8696:059 JLINK_WriteReg(MSP, 0x20001000)  returns 0x00 (0000ms, 11384ms total)
T276C 8696:059 JLINK_WriteReg(PSP, 0x20001000)  returns 0x00 (0000ms, 11384ms total)
T276C 8696:059 JLINK_WriteReg(CFBP, 0x00000000)  returns 0x00 (0000ms, 11384ms total)
T276C 8696:059 JLINK_SetBPEx(Addr = 0x20000000, Type = 0xFFFFFFF2)  returns 0x00000005 (0000ms, 11384ms total)
T276C 8696:059 JLINK_Go() -- CPU_ReadMem(4 bytes @ 0xE0001000) (0001ms, 11385ms total)
T276C 8696:060 JLINK_IsHalted()  returns FALSE (0000ms, 11385ms total)
T276C 8696:070 JLINK_IsHalted()  returns FALSE (0000ms, 11385ms total)
T276C 8696:072 JLINK_IsHalted()  returns FALSE (0000ms, 11385ms total)
T276C 8696:074 JLINK_IsHalted()  returns FALSE (0000ms, 11385ms total)
T276C 8696:076 JLINK_IsHalted()  returns FALSE (0000ms, 11385ms total)
T276C 8696:078 JLINK_IsHalted()  returns FALSE (0000ms, 11385ms total)
T276C 8696:080 JLINK_IsHalted()  returns FALSE (0000ms, 11385ms total)
T276C 8696:082 JLINK_IsHalted()  returns FALSE (0000ms, 11385ms total)
T276C 8696:084 JLINK_IsHalted()  returns FALSE (0000ms, 11385ms total)
T276C 8696:086 JLINK_IsHalted()  returns FALSE (0000ms, 11385ms total)
T276C 8696:088 JLINK_IsHalted()  returns FALSE (0000ms, 11385ms total)
T276C 8696:090 JLINK_IsHalted()  returns FALSE (0000ms, 11385ms total)
T276C 8696:169 JLINK_IsHalted()  returns FALSE (0000ms, 11385ms total)
T276C 8696:171 JLINK_IsHalted()  returns FALSE (0000ms, 11385ms total)
T276C 8696:173 JLINK_IsHalted()  returns FALSE (0000ms, 11385ms total)
T276C 8696:175 JLINK_IsHalted()  returns FALSE (0000ms, 11385ms total)
T276C 8696:177 JLINK_IsHalted()  returns FALSE (0000ms, 11385ms total)
T276C 8696:179 JLINK_IsHalted()  returns FALSE (0000ms, 11385ms total)
T276C 8696:181 JLINK_IsHalted()  returns FALSE (0000ms, 11385ms total)
T276C 8696:190 JLINK_IsHalted()  returns FALSE (0000ms, 11385ms total)
T276C 8696:192 JLINK_IsHalted()  returns FALSE (0000ms, 11385ms total)
T276C 8696:194 JLINK_IsHalted()  returns FALSE (0000ms, 11385ms total)
T276C 8696:196 JLINK_IsHalted()  returns FALSE (0000ms, 11385ms total)
T276C 8696:198 JLINK_IsHalted()  returns FALSE (0000ms, 11385ms total)
T276C 8696:200 JLINK_IsHalted()  returns FALSE (0000ms, 11385ms total)
T276C 8696:202 JLINK_IsHalted()  returns FALSE (0000ms, 11385ms total)
T276C 8696:204 JLINK_IsHalted()  returns FALSE (0000ms, 11385ms total)
T276C 8696:206 JLINK_IsHalted()  returns FALSE (0000ms, 11385ms total)
T276C 8696:208 JLINK_IsHalted()  returns FALSE (0000ms, 11385ms total)
T276C 8696:210 JLINK_IsHalted()  returns FALSE (0000ms, 11385ms total)
T276C 8696:212 JLINK_IsHalted()  returns FALSE (0000ms, 11385ms total)
T276C 8696:214 JLINK_IsHalted()  returns FALSE (0000ms, 11385ms total)
T276C 8696:216 JLINK_IsHalted()  returns FALSE (0000ms, 11385ms total)
T276C 8696:238 JLINK_IsHalted()  returns FALSE (0000ms, 11385ms total)
T276C 8696:240 JLINK_IsHalted()  returns FALSE (0000ms, 11385ms total)
T276C 8696:242 JLINK_IsHalted()  returns FALSE (0000ms, 11385ms total)
T276C 8696:244 JLINK_IsHalted()  returns FALSE (0000ms, 11385ms total)
T276C 8696:262 JLINK_IsHalted()  returns FALSE (0000ms, 11385ms total)
T276C 8696:264 JLINK_IsHalted()  returns FALSE (0000ms, 11385ms total)
T276C 8696:267 JLINK_IsHalted()  returns FALSE (0000ms, 11385ms total)
T276C 8696:269 JLINK_IsHalted()  returns FALSE (0000ms, 11385ms total)
T276C 8696:271 JLINK_IsHalted()  returns FALSE (0000ms, 11385ms total)
T276C 8696:273 JLINK_IsHalted()  returns FALSE (0000ms, 11385ms total)
T276C 8696:275 JLINK_IsHalted()  returns FALSE (0000ms, 11385ms total)
T276C 8696:277 JLINK_IsHalted()  returns FALSE (0000ms, 11385ms total)
T276C 8696:285 JLINK_IsHalted()  returns FALSE (0000ms, 11385ms total)
T276C 8696:287 JLINK_IsHalted()  returns FALSE (0000ms, 11385ms total)
T276C 8696:289 JLINK_IsHalted()  returns FALSE (0000ms, 11385ms total)
T276C 8696:291 JLINK_IsHalted()  returns FALSE (0000ms, 11385ms total)
T276C 8696:293 JLINK_IsHalted()  returns FALSE (0000ms, 11385ms total)
T276C 8696:295 JLINK_IsHalted()  returns FALSE (0000ms, 11385ms total)
T276C 8696:297 JLINK_IsHalted()  returns FALSE (0000ms, 11385ms total)
T276C 8696:299 JLINK_IsHalted()  returns FALSE (0000ms, 11385ms total)
T276C 8696:301 JLINK_IsHalted()  returns FALSE (0000ms, 11385ms total)
T276C 8696:303 JLINK_IsHalted()  returns FALSE (0000ms, 11385ms total)
T276C 8696:305 JLINK_IsHalted()  returns FALSE (0000ms, 11385ms total)
T276C 8696:312 JLINK_IsHalted()  returns FALSE (0000ms, 11385ms total)
T276C 8696:314 JLINK_IsHalted()  returns FALSE (0000ms, 11385ms total)
T276C 8696:316 JLINK_IsHalted()  returns FALSE (0000ms, 11385ms total)
T276C 8696:318 JLINK_IsHalted()  returns FALSE (0000ms, 11385ms total)
T276C 8696:320 JLINK_IsHalted()  returns FALSE (0000ms, 11385ms total)
T276C 8696:322 JLINK_IsHalted()  returns FALSE (0000ms, 11385ms total)
T276C 8696:324 JLINK_IsHalted()  returns FALSE (0000ms, 11385ms total)
T276C 8696:326 JLINK_IsHalted()  returns FALSE (0000ms, 11385ms total)
T276C 8696:328 JLINK_IsHalted()  returns FALSE (0000ms, 11385ms total)
T276C 8696:330 JLINK_IsHalted()  returns FALSE (0000ms, 11385ms total)
T276C 8696:332 JLINK_IsHalted()  returns FALSE (0000ms, 11385ms total)
T276C 8696:334 JLINK_IsHalted()  returns FALSE (0000ms, 11385ms total)
T276C 8696:336 JLINK_IsHalted()  returns FALSE (0000ms, 11385ms total)
T276C 8696:338 JLINK_IsHalted()  returns FALSE (0000ms, 11385ms total)
T276C 8696:340 JLINK_IsHalted()  returns FALSE (0000ms, 11385ms total)
T276C 8696:342 JLINK_IsHalted()  returns FALSE (0000ms, 11385ms total)
T276C 8696:350 JLINK_IsHalted()  returns FALSE (0000ms, 11385ms total)
T276C 8696:352 JLINK_IsHalted()  returns FALSE (0000ms, 11385ms total)
T276C 8696:354 JLINK_IsHalted()  returns FALSE (0000ms, 11385ms total)
T276C 8696:356 JLINK_IsHalted()  returns FALSE (0000ms, 11385ms total)
T276C 8696:358 JLINK_IsHalted()  returns FALSE (0000ms, 11385ms total)
T276C 8696:360 JLINK_IsHalted()  returns FALSE (0000ms, 11385ms total)
T276C 8696:362 JLINK_IsHalted()  returns FALSE (0000ms, 11385ms total)
T276C 8696:364 JLINK_IsHalted()  returns FALSE (0000ms, 11385ms total)
T276C 8696:366 JLINK_IsHalted()  returns FALSE (0000ms, 11385ms total)
T276C 8696:368 JLINK_IsHalted()  returns FALSE (0000ms, 11385ms total)
T276C 8696:370 JLINK_IsHalted()  returns FALSE (0000ms, 11385ms total)
T276C 8696:372 JLINK_IsHalted()  returns FALSE (0000ms, 11385ms total)
T276C 8696:382 JLINK_IsHalted()  returns FALSE (0000ms, 11385ms total)
T276C 8696:384 JLINK_IsHalted()  returns FALSE (0000ms, 11385ms total)
T276C 8696:386 JLINK_IsHalted()  returns FALSE (0000ms, 11385ms total)
T276C 8696:388 JLINK_IsHalted()  returns FALSE (0000ms, 11385ms total)
T276C 8696:390 JLINK_IsHalted()  returns FALSE (0000ms, 11385ms total)
T276C 8696:392 JLINK_IsHalted()  returns FALSE (0000ms, 11385ms total)
T276C 8696:394 JLINK_IsHalted()  returns FALSE (0000ms, 11385ms total)
T276C 8696:396 JLINK_IsHalted()  returns FALSE (0000ms, 11385ms total)
T276C 8696:398 JLINK_IsHalted()  returns FALSE (0000ms, 11385ms total)
T276C 8696:400 JLINK_IsHalted()  returns FALSE (0000ms, 11385ms total)
T276C 8696:413 JLINK_IsHalted()  returns FALSE (0000ms, 11385ms total)
T276C 8696:415 JLINK_IsHalted()  returns FALSE (0000ms, 11385ms total)
T276C 8696:417 JLINK_IsHalted()  returns FALSE (0000ms, 11385ms total)
T276C 8696:419 JLINK_IsHalted()  returns FALSE (0000ms, 11385ms total)
T276C 8696:421 JLINK_IsHalted()  returns FALSE (0000ms, 11385ms total)
T276C 8696:423 JLINK_IsHalted()  returns FALSE (0000ms, 11385ms total)
T276C 8696:425 JLINK_IsHalted()  returns FALSE (0000ms, 11385ms total)
T276C 8696:427 JLINK_IsHalted()  returns FALSE (0000ms, 11385ms total)
T276C 8696:429 JLINK_IsHalted()  returns FALSE (0000ms, 11385ms total)
T276C 8696:431 JLINK_IsHalted()  returns FALSE (0000ms, 11385ms total)
T276C 8696:461 JLINK_IsHalted() -- CPU_ReadMem(2 bytes @ 0x20000000)  returns TRUE (0002ms, 11387ms total)
T276C 8696:463 JLINK_ReadReg(R15 (PC))  returns 0x20000000 (0000ms, 11385ms total)
T276C 8696:463 JLINK_ClrBPEx(BPHandle = 0x00000005)  returns 0x00 (0000ms, 11385ms total)
T276C 8696:463 JLINK_ReadReg(R0)  returns 0x00000000 (0000ms, 11385ms total)
T276C 8696:463 JLINK_WriteReg(R0, 0x00000001)  returns 0x00 (0000ms, 11385ms total)
T276C 8696:463 JLINK_WriteReg(R1, 0x00004000)  returns 0x00 (0000ms, 11385ms total)
T276C 8696:463 JLINK_WriteReg(R2, 0x000000FF)  returns 0x00 (0000ms, 11385ms total)
T276C 8696:463 JLINK_WriteReg(R3, 0x00000000)  returns 0x00 (0000ms, 11385ms total)
T276C 8696:463 JLINK_WriteReg(R4, 0x00000000)  returns 0x00 (0000ms, 11385ms total)
T276C 8696:463 JLINK_WriteReg(R5, 0x00000000)  returns 0x00 (0000ms, 11385ms total)
T276C 8696:463 JLINK_WriteReg(R6, 0x00000000)  returns 0x00 (0000ms, 11385ms total)
T276C 8696:463 JLINK_WriteReg(R7, 0x00000000)  returns 0x00 (0000ms, 11385ms total)
T276C 8696:463 JLINK_WriteReg(R8, 0x00000000)  returns 0x00 (0000ms, 11385ms total)
T276C 8696:463 JLINK_WriteReg(R9, 0x2000017C)  returns 0x00 (0000ms, 11385ms total)
T276C 8696:463 JLINK_WriteReg(R10, 0x00000000)  returns 0x00 (0000ms, 11385ms total)
T276C 8696:463 JLINK_WriteReg(R11, 0x00000000)  returns 0x00 (0000ms, 11385ms total)
T276C 8696:463 JLINK_WriteReg(R12, 0x00000000)  returns 0x00 (0000ms, 11385ms total)
T276C 8696:463 JLINK_WriteReg(R13 (SP), 0x20001000)  returns 0x00 (0000ms, 11385ms total)
T276C 8696:463 JLINK_WriteReg(R14, 0x20000001)  returns 0x00 (0000ms, 11385ms total)
T276C 8696:463 JLINK_WriteReg(R15 (PC), 0x20000082)  returns 0x00 (0000ms, 11385ms total)
T276C 8696:463 JLINK_WriteReg(XPSR, 0x01000000)  returns 0x00 (0000ms, 11385ms total)
T276C 8696:463 JLINK_WriteReg(MSP, 0x20001000)  returns 0x00 (0000ms, 11385ms total)
T276C 8696:463 JLINK_WriteReg(PSP, 0x20001000)  returns 0x00 (0000ms, 11385ms total)
T276C 8696:463 JLINK_WriteReg(CFBP, 0x00000000)  returns 0x00 (0000ms, 11385ms total)
T276C 8696:463 JLINK_SetBPEx(Addr = 0x20000000, Type = 0xFFFFFFF2)  returns 0x00000006 (0000ms, 11385ms total)
T276C 8696:463 JLINK_Go() -- CPU_ReadMem(4 bytes @ 0xE0001000) (0002ms, 11387ms total)
T276C 8696:465 JLINK_IsHalted() -- CPU_ReadMem(2 bytes @ 0x20000000)  returns TRUE (0002ms, 11389ms total)
T276C 8696:467 JLINK_ReadReg(R15 (PC))  returns 0x20000000 (0000ms, 11387ms total)
T276C 8696:467 JLINK_ClrBPEx(BPHandle = 0x00000006)  returns 0x00 (0000ms, 11387ms total)
T276C 8696:467 JLINK_ReadReg(R0)  returns 0x00000000 (0000ms, 11387ms total)
T276C 8696:551 JLINK_WriteMem(0x20000000, 0x0180 Bytes, ...) - Data: 00 BE 0A E0 0D 78 2D 06 68 40 08 24 40 00 00 D3 ... -- CPU_WriteMem(384 bytes @ 0x20000000)  returns 0x180 (0002ms, 11389ms total)
T276C 8696:553 JLINK_WriteReg(R0, 0x08000000)  returns 0x00 (0000ms, 11389ms total)
T276C 8696:553 JLINK_WriteReg(R1, 0x08954400)  returns 0x00 (0000ms, 11389ms total)
T276C 8696:553 JLINK_WriteReg(R2, 0x00000002)  returns 0x00 (0000ms, 11389ms total)
T276C 8696:553 JLINK_WriteReg(R3, 0x00000000)  returns 0x00 (0000ms, 11389ms total)
T276C 8696:553 JLINK_WriteReg(R4, 0x00000000)  returns 0x00 (0000ms, 11389ms total)
T276C 8696:553 JLINK_WriteReg(R5, 0x00000000)  returns 0x00 (0000ms, 11389ms total)
T276C 8696:553 JLINK_WriteReg(R6, 0x00000000)  returns 0x00 (0000ms, 11389ms total)
T276C 8696:553 JLINK_WriteReg(R7, 0x00000000)  returns 0x00 (0000ms, 11389ms total)
T276C 8696:553 JLINK_WriteReg(R8, 0x00000000)  returns 0x00 (0000ms, 11389ms total)
T276C 8696:553 JLINK_WriteReg(R9, 0x2000017C)  returns 0x00 (0000ms, 11389ms total)
T276C 8696:553 JLINK_WriteReg(R10, 0x00000000)  returns 0x00 (0000ms, 11389ms total)
T276C 8696:553 JLINK_WriteReg(R11, 0x00000000)  returns 0x00 (0000ms, 11389ms total)
T276C 8696:553 JLINK_WriteReg(R12, 0x00000000)  returns 0x00 (0000ms, 11389ms total)
T276C 8696:553 JLINK_WriteReg(R13 (SP), 0x20001000)  returns 0x00 (0000ms, 11389ms total)
T276C 8696:553 JLINK_WriteReg(R14, 0x20000001)  returns 0x00 (0000ms, 11389ms total)
T276C 8696:553 JLINK_WriteReg(R15 (PC), 0x20000054)  returns 0x00 (0000ms, 11389ms total)
T276C 8696:553 JLINK_WriteReg(XPSR, 0x01000000)  returns 0x00 (0000ms, 11389ms total)
T276C 8696:553 JLINK_WriteReg(MSP, 0x20001000)  returns 0x00 (0000ms, 11389ms total)
T276C 8696:553 JLINK_WriteReg(PSP, 0x20001000)  returns 0x00 (0000ms, 11389ms total)
T276C 8696:553 JLINK_WriteReg(CFBP, 0x00000000)  returns 0x00 (0000ms, 11389ms total)
T276C 8696:553 JLINK_SetBPEx(Addr = 0x20000000, Type = 0xFFFFFFF2) -- CPU_ReadMem(2 bytes @ 0x20000000)  returns 0x00000007 (0000ms, 11389ms total)
T276C 8696:553 JLINK_Go() -- CPU_WriteMem(2 bytes @ 0x20000000) -- CPU_ReadMem(4 bytes @ 0xE0001000) (0002ms, 11391ms total)
T276C 8696:555 JLINK_IsHalted() -- CPU_ReadMem(2 bytes @ 0x20000000)  returns TRUE (0002ms, 11393ms total)
T276C 8696:557 JLINK_ReadReg(R15 (PC))  returns 0x20000000 (0000ms, 11391ms total)
T276C 8696:557 JLINK_ClrBPEx(BPHandle = 0x00000007)  returns 0x00 (0000ms, 11391ms total)
T276C 8696:557 JLINK_ReadReg(R0)  returns 0x00000000 (0000ms, 11391ms total)
T276C 8696:560 JLINK_WriteMem(0x20000180, 0x0280 Bytes, ...) - Data: 40 6D 00 20 59 02 00 08 9D 2B 00 08 F9 25 00 08 ... -- CPU_WriteMem(640 bytes @ 0x20000180)  returns 0x280 (0003ms, 11394ms total)
T276C 8696:563 JLINK_WriteMem(0x20000400, 0x0180 Bytes, ...) - Data: 05 46 00 20 92 46 9B 46 88 46 06 46 81 46 40 24 ... -- CPU_WriteMem(384 bytes @ 0x20000400)  returns 0x180 (0002ms, 11396ms total)
T276C 8696:565 JLINK_WriteReg(R0, 0x08000000)  returns 0x00 (0000ms, 11396ms total)
T276C 8696:565 JLINK_WriteReg(R1, 0x00000400)  returns 0x00 (0000ms, 11396ms total)
T276C 8696:565 JLINK_WriteReg(R2, 0x20000180)  returns 0x00 (0000ms, 11396ms total)
T276C 8696:565 JLINK_WriteReg(R3, 0x00000000)  returns 0x00 (0000ms, 11396ms total)
T276C 8696:565 JLINK_WriteReg(R4, 0x00000000)  returns 0x00 (0000ms, 11396ms total)
T276C 8696:565 JLINK_WriteReg(R5, 0x00000000)  returns 0x00 (0000ms, 11396ms total)
T276C 8696:565 JLINK_WriteReg(R6, 0x00000000)  returns 0x00 (0000ms, 11396ms total)
T276C 8696:565 JLINK_WriteReg(R7, 0x00000000)  returns 0x00 (0000ms, 11396ms total)
T276C 8696:565 JLINK_WriteReg(R8, 0x00000000)  returns 0x00 (0000ms, 11396ms total)
T276C 8696:565 JLINK_WriteReg(R9, 0x2000017C)  returns 0x00 (0000ms, 11396ms total)
T276C 8696:565 JLINK_WriteReg(R10, 0x00000000)  returns 0x00 (0000ms, 11396ms total)
T276C 8696:565 JLINK_WriteReg(R11, 0x00000000)  returns 0x00 (0000ms, 11396ms total)
T276C 8696:565 JLINK_WriteReg(R12, 0x00000000)  returns 0x00 (0000ms, 11396ms total)
T276C 8696:565 JLINK_WriteReg(R13 (SP), 0x20001000)  returns 0x00 (0000ms, 11396ms total)
T276C 8696:565 JLINK_WriteReg(R14, 0x20000001)  returns 0x00 (0000ms, 11396ms total)
T276C 8696:565 JLINK_WriteReg(R15 (PC), 0x20000108)  returns 0x00 (0000ms, 11396ms total)
T276C 8696:565 JLINK_WriteReg(XPSR, 0x01000000)  returns 0x00 (0000ms, 11396ms total)
T276C 8696:565 JLINK_WriteReg(MSP, 0x20001000)  returns 0x00 (0000ms, 11396ms total)
T276C 8696:565 JLINK_WriteReg(PSP, 0x20001000)  returns 0x00 (0000ms, 11396ms total)
T276C 8696:565 JLINK_WriteReg(CFBP, 0x00000000)  returns 0x00 (0000ms, 11396ms total)
T276C 8696:565 JLINK_SetBPEx(Addr = 0x20000000, Type = 0xFFFFFFF2)  returns 0x00000008 (0000ms, 11396ms total)
T276C 8696:565 JLINK_Go() -- CPU_ReadMem(4 bytes @ 0xE0001000) (0001ms, 11397ms total)
T276C 8696:566 JLINK_IsHalted()  returns FALSE (0000ms, 11397ms total)
T276C 8696:585 JLINK_IsHalted() -- CPU_ReadMem(2 bytes @ 0x20000000)  returns TRUE (0002ms, 11399ms total)
T276C 8696:587 JLINK_ReadReg(R15 (PC))  returns 0x20000000 (0000ms, 11397ms total)
T276C 8696:587 JLINK_ClrBPEx(BPHandle = 0x00000008)  returns 0x00 (0000ms, 11397ms total)
T276C 8696:587 JLINK_ReadReg(R0)  returns 0x00000000 (0000ms, 11397ms total)
T276C 8696:590 JLINK_WriteMem(0x20000180, 0x0280 Bytes, ...) - Data: 00 20 70 47 10 B5 00 22 04 49 05 48 03 F0 EC F8 ... -- CPU_WriteMem(640 bytes @ 0x20000180)  returns 0x280 (0003ms, 11400ms total)
T276C 8696:593 JLINK_WriteMem(0x20000400, 0x0180 Bytes, ...) - Data: 00 03 08 D5 A1 6C 07 E0 01 68 C9 05 03 D4 01 68 ... -- CPU_WriteMem(384 bytes @ 0x20000400)  returns 0x180 (0002ms, 11402ms total)
T276C 8696:595 JLINK_WriteReg(R0, 0x08000400)  returns 0x00 (0000ms, 11402ms total)
T276C 8696:595 JLINK_WriteReg(R1, 0x00000400)  returns 0x00 (0000ms, 11402ms total)
T276C 8696:595 JLINK_WriteReg(R2, 0x20000180)  returns 0x00 (0000ms, 11402ms total)
T276C 8696:595 JLINK_WriteReg(R3, 0x00000000)  returns 0x00 (0000ms, 11402ms total)
T276C 8696:595 JLINK_WriteReg(R4, 0x00000000)  returns 0x00 (0000ms, 11402ms total)
T276C 8696:595 JLINK_WriteReg(R5, 0x00000000)  returns 0x00 (0000ms, 11402ms total)
T276C 8696:595 JLINK_WriteReg(R6, 0x00000000)  returns 0x00 (0000ms, 11402ms total)
T276C 8696:595 JLINK_WriteReg(R7, 0x00000000)  returns 0x00 (0000ms, 11402ms total)
T276C 8696:595 JLINK_WriteReg(R8, 0x00000000)  returns 0x00 (0000ms, 11402ms total)
T276C 8696:595 JLINK_WriteReg(R9, 0x2000017C)  returns 0x00 (0000ms, 11402ms total)
T276C 8696:595 JLINK_WriteReg(R10, 0x00000000)  returns 0x00 (0000ms, 11402ms total)
T276C 8696:595 JLINK_WriteReg(R11, 0x00000000)  returns 0x00 (0000ms, 11402ms total)
T276C 8696:595 JLINK_WriteReg(R12, 0x00000000)  returns 0x00 (0000ms, 11402ms total)
T276C 8696:595 JLINK_WriteReg(R13 (SP), 0x20001000)  returns 0x00 (0000ms, 11402ms total)
T276C 8696:595 JLINK_WriteReg(R14, 0x20000001)  returns 0x00 (0000ms, 11402ms total)
T276C 8696:595 JLINK_WriteReg(R15 (PC), 0x20000108)  returns 0x00 (0000ms, 11402ms total)
T276C 8696:595 JLINK_WriteReg(XPSR, 0x01000000)  returns 0x00 (0000ms, 11402ms total)
T276C 8696:595 JLINK_WriteReg(MSP, 0x20001000)  returns 0x00 (0000ms, 11402ms total)
T276C 8696:595 JLINK_WriteReg(PSP, 0x20001000)  returns 0x00 (0000ms, 11402ms total)
T276C 8696:595 JLINK_WriteReg(CFBP, 0x00000000)  returns 0x00 (0000ms, 11402ms total)
T276C 8696:595 JLINK_SetBPEx(Addr = 0x20000000, Type = 0xFFFFFFF2)  returns 0x00000009 (0000ms, 11402ms total)
T276C 8696:595 JLINK_Go() -- CPU_ReadMem(4 bytes @ 0xE0001000) (0001ms, 11403ms total)
T276C 8696:596 JLINK_IsHalted()  returns FALSE (0000ms, 11403ms total)
T276C 8696:598 JLINK_IsHalted()  returns FALSE (0000ms, 11403ms total)
T276C 8696:600 JLINK_IsHalted()  returns FALSE (0000ms, 11403ms total)
T276C 8696:602 JLINK_IsHalted() -- CPU_ReadMem(2 bytes @ 0x20000000)  returns TRUE (0002ms, 11405ms total)
T276C 8696:604 JLINK_ReadReg(R15 (PC))  returns 0x20000000 (0000ms, 11403ms total)
T276C 8696:604 JLINK_ClrBPEx(BPHandle = 0x00000009)  returns 0x00 (0000ms, 11403ms total)
T276C 8696:604 JLINK_ReadReg(R0)  returns 0x00000000 (0000ms, 11403ms total)
T276C 8696:605 JLINK_WriteMem(0x20000180, 0x0280 Bytes, ...) - Data: 30 46 0E 43 01 27 04 28 0C D1 A0 6A 06 43 E0 6A ... -- CPU_WriteMem(640 bytes @ 0x20000180)  returns 0x280 (0002ms, 11405ms total)
T276C 8696:607 JLINK_WriteMem(0x20000400, 0x0180 Bytes, ...) - Data: 00 0C 02 40 00 10 02 40 00 14 02 40 00 18 02 40 ... -- CPU_WriteMem(384 bytes @ 0x20000400)  returns 0x180 (0002ms, 11407ms total)
T276C 8696:609 JLINK_WriteReg(R0, 0x08000800)  returns 0x00 (0000ms, 11407ms total)
T276C 8696:609 JLINK_WriteReg(R1, 0x00000400)  returns 0x00 (0000ms, 11407ms total)
T276C 8696:609 JLINK_WriteReg(R2, 0x20000180)  returns 0x00 (0000ms, 11407ms total)
T276C 8696:609 JLINK_WriteReg(R3, 0x00000000)  returns 0x00 (0000ms, 11407ms total)
T276C 8696:609 JLINK_WriteReg(R4, 0x00000000)  returns 0x00 (0000ms, 11407ms total)
T276C 8696:609 JLINK_WriteReg(R5, 0x00000000)  returns 0x00 (0000ms, 11407ms total)
T276C 8696:609 JLINK_WriteReg(R6, 0x00000000)  returns 0x00 (0000ms, 11407ms total)
T276C 8696:609 JLINK_WriteReg(R7, 0x00000000)  returns 0x00 (0000ms, 11407ms total)
T276C 8696:609 JLINK_WriteReg(R8, 0x00000000)  returns 0x00 (0000ms, 11407ms total)
T276C 8696:609 JLINK_WriteReg(R9, 0x2000017C)  returns 0x00 (0000ms, 11407ms total)
T276C 8696:609 JLINK_WriteReg(R10, 0x00000000)  returns 0x00 (0000ms, 11407ms total)
T276C 8696:609 JLINK_WriteReg(R11, 0x00000000)  returns 0x00 (0000ms, 11407ms total)
T276C 8696:609 JLINK_WriteReg(R12, 0x00000000)  returns 0x00 (0000ms, 11407ms total)
T276C 8696:609 JLINK_WriteReg(R13 (SP), 0x20001000)  returns 0x00 (0000ms, 11407ms total)
T276C 8696:609 JLINK_WriteReg(R14, 0x20000001)  returns 0x00 (0000ms, 11407ms total)
T276C 8696:609 JLINK_WriteReg(R15 (PC), 0x20000108)  returns 0x00 (0000ms, 11407ms total)
T276C 8696:609 JLINK_WriteReg(XPSR, 0x01000000)  returns 0x00 (0000ms, 11407ms total)
T276C 8696:609 JLINK_WriteReg(MSP, 0x20001000)  returns 0x00 (0000ms, 11407ms total)
T276C 8696:609 JLINK_WriteReg(PSP, 0x20001000)  returns 0x00 (0000ms, 11407ms total)
T276C 8696:609 JLINK_WriteReg(CFBP, 0x00000000)  returns 0x00 (0000ms, 11407ms total)
T276C 8696:609 JLINK_SetBPEx(Addr = 0x20000000, Type = 0xFFFFFFF2)  returns 0x0000000A (0000ms, 11407ms total)
T276C 8696:609 JLINK_Go() -- CPU_ReadMem(4 bytes @ 0xE0001000) (0001ms, 11408ms total)
T276C 8696:610 JLINK_IsHalted()  returns FALSE (0000ms, 11408ms total)
T276C 8696:612 JLINK_IsHalted()  returns FALSE (0000ms, 11408ms total)
T276C 8696:614 JLINK_IsHalted()  returns FALSE (0000ms, 11408ms total)
T276C 8696:616 JLINK_IsHalted() -- CPU_ReadMem(2 bytes @ 0x20000000)  returns TRUE (0002ms, 11410ms total)
T276C 8696:618 JLINK_ReadReg(R15 (PC))  returns 0x20000000 (0000ms, 11408ms total)
T276C 8696:618 JLINK_ClrBPEx(BPHandle = 0x0000000A)  returns 0x00 (0000ms, 11408ms total)
T276C 8696:618 JLINK_ReadReg(R0)  returns 0x00000000 (0000ms, 11408ms total)
T276C 8696:621 JLINK_WriteMem(0x20000180, 0x0280 Bytes, ...) - Data: 00 F0 16 F8 00 22 0F 21 BD E8 08 40 50 1E 00 F0 ... -- CPU_WriteMem(640 bytes @ 0x20000180)  returns 0x280 (0003ms, 11411ms total)
T276C 8696:624 JLINK_WriteMem(0x20000400, 0x0180 Bytes, ...) - Data: 01 22 8A 70 08 70 E8 09 48 70 94 F8 B8 03 01 28 ... -- CPU_WriteMem(384 bytes @ 0x20000400)  returns 0x180 (0001ms, 11412ms total)
T276C 8696:625 JLINK_WriteReg(R0, 0x08000C00)  returns 0x00 (0000ms, 11412ms total)
T276C 8696:625 JLINK_WriteReg(R1, 0x00000400)  returns 0x00 (0000ms, 11412ms total)
T276C 8696:625 JLINK_WriteReg(R2, 0x20000180)  returns 0x00 (0000ms, 11412ms total)
T276C 8696:625 JLINK_WriteReg(R3, 0x00000000)  returns 0x00 (0000ms, 11412ms total)
T276C 8696:625 JLINK_WriteReg(R4, 0x00000000)  returns 0x00 (0000ms, 11412ms total)
T276C 8696:625 JLINK_WriteReg(R5, 0x00000000)  returns 0x00 (0000ms, 11412ms total)
T276C 8696:625 JLINK_WriteReg(R6, 0x00000000)  returns 0x00 (0000ms, 11412ms total)
T276C 8696:625 JLINK_WriteReg(R7, 0x00000000)  returns 0x00 (0000ms, 11412ms total)
T276C 8696:625 JLINK_WriteReg(R8, 0x00000000)  returns 0x00 (0000ms, 11412ms total)
T276C 8696:625 JLINK_WriteReg(R9, 0x2000017C)  returns 0x00 (0000ms, 11412ms total)
T276C 8696:625 JLINK_WriteReg(R10, 0x00000000)  returns 0x00 (0000ms, 11412ms total)
T276C 8696:625 JLINK_WriteReg(R11, 0x00000000)  returns 0x00 (0000ms, 11412ms total)
T276C 8696:625 JLINK_WriteReg(R12, 0x00000000)  returns 0x00 (0001ms, 11413ms total)
T276C 8696:626 JLINK_WriteReg(R13 (SP), 0x20001000)  returns 0x00 (0000ms, 11413ms total)
T276C 8696:626 JLINK_WriteReg(R14, 0x20000001)  returns 0x00 (0000ms, 11413ms total)
T276C 8696:626 JLINK_WriteReg(R15 (PC), 0x20000108)  returns 0x00 (0000ms, 11413ms total)
T276C 8696:626 JLINK_WriteReg(XPSR, 0x01000000)  returns 0x00 (0000ms, 11413ms total)
T276C 8696:626 JLINK_WriteReg(MSP, 0x20001000)  returns 0x00 (0000ms, 11413ms total)
T276C 8696:626 JLINK_WriteReg(PSP, 0x20001000)  returns 0x00 (0000ms, 11413ms total)
T276C 8696:626 JLINK_WriteReg(CFBP, 0x00000000)  returns 0x00 (0000ms, 11413ms total)
T276C 8696:626 JLINK_SetBPEx(Addr = 0x20000000, Type = 0xFFFFFFF2)  returns 0x0000000B (0000ms, 11413ms total)
T276C 8696:626 JLINK_Go() -- CPU_ReadMem(4 bytes @ 0xE0001000) (0001ms, 11414ms total)
T276C 8696:627 JLINK_IsHalted()  returns FALSE (0000ms, 11414ms total)
T276C 8696:631 JLINK_IsHalted()  returns FALSE (0000ms, 11414ms total)
T276C 8696:633 JLINK_IsHalted() -- CPU_ReadMem(2 bytes @ 0x20000000)  returns TRUE (0002ms, 11416ms total)
T276C 8696:635 JLINK_ReadReg(R15 (PC))  returns 0x20000000 (0000ms, 11414ms total)
T276C 8696:635 JLINK_ClrBPEx(BPHandle = 0x0000000B)  returns 0x00 (0000ms, 11414ms total)
T276C 8696:635 JLINK_ReadReg(R0)  returns 0x00000000 (0000ms, 11414ms total)
T276C 8696:635 JLINK_WriteMem(0x20000180, 0x0280 Bytes, ...) - Data: 51 D0 F1 B2 20 68 03 F0 2B FC 80 46 C0 07 24 D0 ... -- CPU_WriteMem(640 bytes @ 0x20000180)  returns 0x280 (0003ms, 11417ms total)
T276C 8696:638 JLINK_WriteMem(0x20000400, 0x0180 Bytes, ...) - Data: 03 D2 41 F4 E0 51 02 E0 0A E0 41 F4 C0 51 C1 60 ... -- CPU_WriteMem(384 bytes @ 0x20000400)  returns 0x180 (0001ms, 11418ms total)
T276C 8696:639 JLINK_WriteReg(R0, 0x08001000)  returns 0x00 (0000ms, 11418ms total)
T276C 8696:639 JLINK_WriteReg(R1, 0x00000400)  returns 0x00 (0000ms, 11418ms total)
T276C 8696:639 JLINK_WriteReg(R2, 0x20000180)  returns 0x00 (0000ms, 11418ms total)
T276C 8696:639 JLINK_WriteReg(R3, 0x00000000)  returns 0x00 (0000ms, 11418ms total)
T276C 8696:639 JLINK_WriteReg(R4, 0x00000000)  returns 0x00 (0000ms, 11418ms total)
T276C 8696:639 JLINK_WriteReg(R5, 0x00000000)  returns 0x00 (0000ms, 11418ms total)
T276C 8696:639 JLINK_WriteReg(R6, 0x00000000)  returns 0x00 (0000ms, 11418ms total)
T276C 8696:639 JLINK_WriteReg(R7, 0x00000000)  returns 0x00 (0000ms, 11418ms total)
T276C 8696:639 JLINK_WriteReg(R8, 0x00000000)  returns 0x00 (0000ms, 11418ms total)
T276C 8696:639 JLINK_WriteReg(R9, 0x2000017C)  returns 0x00 (0000ms, 11418ms total)
T276C 8696:639 JLINK_WriteReg(R10, 0x00000000)  returns 0x00 (0000ms, 11418ms total)
